T636C 000:069.891   SEGGER J-Link V7.22b Log File
T636C 000:070.057   DLL Compiled: Jun 17 2021 17:22:49
T636C 000:070.063   Logging started @ 2026-05-13 01:24
T636C 000:070.068 - 70.070ms
T636C 000:070.080 JLINK_SetWarnOutHandler(...)
T636C 000:070.087 - 0.009ms
T636C 000:070.093 JLINK_OpenEx(...)
T636C 000:071.537   Firmware: J-Link ARM-OB STM32 compiled Aug 22 2012 19:52:04
T636C 000:071.934   Firmware: J-Link ARM-OB STM32 compiled Aug 22 2012 19:52:04
T636C 000:073.684   Hardware: V7.00
T636C 000:073.699   S/N: 20090928
T636C 000:073.706   OEM: SEGGER
T636C 000:073.713   Feature(s): RDI,FlashDL,FlashBP,JFlash,GDB
T636C 000:074.597   TELNET listener socket opened on port 19021
T636C 000:074.663   WEBSRV Starting webserver
T636C 000:074.756   WEBSRV Webserver running on local port 19080
T636C 000:074.767 - 4.676ms returns "O.K."
T636C 000:074.779 JLINK_GetEmuCaps()
T636C 000:074.784 - 0.007ms returns 0x88EA5833
T636C 000:074.820 JLINK_TIF_GetAvailable(...)
T636C 000:075.027 - 0.218ms
T636C 000:075.055 JLINK_SetErrorOutHandler(...)
T636C 000:075.076 - 0.023ms
T636C 000:075.113 JLINK_ExecCommand("ProjectFile = "C:\Users\Huey\Desktop\KEY-YS618\Examples\00LED\YS618_10120U1.0-KEY\MDK\JLinkSettings.ini"", ...). 
T636C 000:102.966   Device "CORTEX-M0" selected.
T636C 000:103.269 - 28.163ms returns 0x00
T636C 000:106.582 JLINK_ExecCommand("Device = CW32L010F8", ...). 
T636C 000:110.683   Device "CORTEX-M0" selected.
T636C 000:111.733 - 5.141ms returns 0x00
T636C 000:111.759 JLINK_GetHardwareVersion()
T636C 000:111.765 - 0.008ms returns 70000
T636C 000:111.772 JLINK_GetDLLVersion()
T636C 000:111.777 - 0.007ms returns 72202
T636C 000:111.783 JLINK_GetOEMString(...)
T636C 000:111.790 JLINK_GetFirmwareString(...)
T636C 000:111.801 - 0.013ms
T636C 000:134.679 JLINK_GetDLLVersion()
T636C 000:134.703 - 0.027ms returns 72202
T636C 000:134.710 JLINK_GetCompileDateTime()
T636C 000:134.715 - 0.007ms
T636C 000:136.867 JLINK_GetFirmwareString(...)
T636C 000:136.884 - 0.019ms
T636C 000:139.157 JLINK_GetHardwareVersion()
T636C 000:139.178 - 0.023ms returns 70000
T636C 000:141.193 JLINK_GetSN()
T636C 000:141.208 - 0.017ms returns 20090928
T636C 000:143.147 JLINK_GetOEMString(...)
T636C 000:149.173 JLINK_TIF_Select(JLINKARM_TIF_SWD)
T636C 000:149.625 - 0.458ms returns 0x00
T636C 000:149.638 JLINK_HasError()
T636C 000:149.650 JLINK_SetSpeed(2000)
T636C 000:149.711 - 0.066ms
T636C 000:149.721 JLINK_GetId()
T636C 000:153.232   Found SW-DP with ID 0x0BC11477
T636C 000:156.705   Old FW that does not support reading DPIDR via DAP jobs
T636C 000:162.739   DPv0 detected
T636C 000:164.659   Scanning AP map to find all available APs
T636C 000:169.336   AP[1]: Stopped AP scan as end of AP map has been reached
T636C 000:171.266   AP[0]: AHB-AP (IDR: 0x04770031)
T636C 000:173.658   Iterating through AP map to find AHB-AP to use
T636C 000:179.729   AP[0]: Core found
T636C 000:182.079   AP[0]: AHB-AP ROM base: 0xE00FF000
T636C 000:185.935   CPUID register: 0x410CC601. Implementer code: 0x41 (ARM)
T636C 000:188.131   Found Cortex-M0 r0p1, Little endian.
T636C 000:289.639   -- Max. mem block: 0x00002C18
T636C 000:289.829   CPU_ReadMem(4 bytes @ 0xE000EDF0)
T636C 000:290.341   CPU_WriteMem(4 bytes @ 0xE000EDF0)
T636C 000:290.895   CPU_ReadMem(4 bytes @ 0xE0002000)
T636C 000:293.996   FPUnit: 4 code (BP) slots and 0 literal slots
T636C 000:294.016   CPU_ReadMem(4 bytes @ 0xE000EDFC)
T636C 000:294.475   CPU_WriteMem(4 bytes @ 0xE000EDFC)
T636C 000:294.971   CPU_ReadMem(4 bytes @ 0xE0001000)
T636C 000:295.426   CPU_WriteMem(4 bytes @ 0xE0001000)
T636C 000:298.236   CoreSight components:
T636C 000:301.243   ROMTbl[0] @ E00FF000
T636C 000:301.268   CPU_ReadMem(64 bytes @ 0xE00FF000)
T636C 000:302.325   CPU_ReadMem(32 bytes @ 0xE000EFE0)
T636C 000:305.349   ROMTbl[0][0]: E000E000, CID: B105E00D, PID: 000BB008 SCS
T636C 000:305.372   CPU_ReadMem(32 bytes @ 0xE0001FE0)
T636C 000:308.281   ROMTbl[0][1]: E0001000, CID: B105E00D, PID: 000BB00A DWT
T636C 000:308.301   CPU_ReadMem(32 bytes @ 0xE0002FE0)
T636C 000:311.077   ROMTbl[0][2]: E0002000, CID: B105E00D, PID: 000BB00B FPB
T636C 000:311.621 - 161.911ms returns 0x0BC11477
T636C 000:311.726 JLINK_GetDLLVersion()
T636C 000:311.739 - 0.015ms returns 72202
T636C 000:311.746 JLINK_CORE_GetFound()
T636C 000:311.751 - 0.029ms returns 0x60000FF
T636C 000:311.779 JLINK_GetDebugInfo(0x100 = JLINKARM_ROM_TABLE_ADDR_INDEX)
T636C 000:311.786   Value=0xE00FF000
T636C 000:311.793 - 0.016ms returns 0
T636C 000:314.171 JLINK_GetDebugInfo(0x100 = JLINKARM_ROM_TABLE_ADDR_INDEX)
T636C 000:314.216   Value=0xE00FF000
T636C 000:314.226 - 0.058ms returns 0
T636C 000:314.235 JLINK_GetDebugInfo(0x101 = JLINKARM_DEBUG_INFO_ETM_ADDR_INDEX)
T636C 000:314.243   Value=0x00000000
T636C 000:314.254 - 0.022ms returns 0
T636C 000:314.270 JLINK_ReadMemEx(0xE0041FF0, 0x10 Bytes, Flags = 0x02000004)
T636C 000:314.308   CPU_ReadMem(16 bytes @ 0xE0041FF0)
T636C 000:314.929   Data:  00 00 00 00 00 00 00 00 00 00 00 00 00 00 00 00
T636C 000:314.943 - 0.675ms returns 16 (0x10)
T636C 000:314.951 JLINK_GetDebugInfo(0x102 = JLINKARM_DEBUG_INFO_MTB_ADDR_INDEX)
T636C 000:314.956   Value=0x00000000
T636C 000:314.963 - 0.015ms returns 0
T636C 000:314.969 JLINK_GetDebugInfo(0x103 = JLINKARM_DEBUG_INFO_TPIU_ADDR_INDEX)
T636C 000:314.974   Value=0x00000000
T636C 000:314.981 - 0.014ms returns 0
T636C 000:314.987 JLINK_ReadMemEx(0xE0040FF0, 0x10 Bytes, Flags = 0x02000004)
T636C 000:314.997   CPU_ReadMem(16 bytes @ 0xE0040FF0)
T636C 000:315.531   Data:  00 00 00 00 00 00 00 00 00 00 00 00 00 00 00 00
T636C 000:315.541 - 0.557ms returns 16 (0x10)
T636C 000:315.549 JLINK_GetDebugInfo(0x104 = JLINKARM_DEBUG_INFO_ITM_ADDR_INDEX)
T636C 000:315.554   Value=0xE0000000
T636C 000:315.561 - 0.014ms returns 0
T636C 000:315.567 JLINK_GetDebugInfo(0x105 = JLINKARM_DEBUG_INFO_DWT_ADDR_INDEX)
T636C 000:315.572   Value=0xE0001000
T636C 000:315.579 - 0.014ms returns 0
T636C 000:315.585 JLINK_GetDebugInfo(0x106 = JLINKARM_DEBUG_INFO_FPB_ADDR_INDEX)
T636C 000:315.590   Value=0xE0002000
T636C 000:315.597 - 0.014ms returns 0
T636C 000:315.603 JLINK_GetDebugInfo(0x107 = JLINKARM_DEBUG_INFO_NVIC_ADDR_INDEX)
T636C 000:315.608   Value=0xE000E000
T636C 000:315.614 - 0.014ms returns 0
T636C 000:315.620 JLINK_GetDebugInfo(0x10C = JLINKARM_DEBUG_INFO_DBG_ADDR_INDEX)
T636C 000:315.625   Value=0xE000EDF0
T636C 000:315.632 - 0.014ms returns 0
T636C 000:315.638 JLINK_GetDebugInfo(0x01 = Unknown)
T636C 000:315.643   Value=0x00000000
T636C 000:315.650 - 0.014ms returns 0
T636C 000:315.656 JLINK_ReadMemU32(0xE000ED00, 0x1 Items)
T636C 000:315.664   CPU_ReadMem(4 bytes @ 0xE000ED00)
T636C 000:316.063   Data:  01 C6 0C 41
T636C 000:316.076   Debug reg: CPUID
T636C 000:316.083 - 0.429ms returns 1 (0x1)
T636C 000:316.090 JLINK_GetDebugInfo(0x10F = JLINKARM_DEBUG_INFO_HAS_CORTEX_M_SECURITY_EXT_INDEX)
T636C 000:316.096   Value=0x00000000
T636C 000:316.102 - 0.014ms returns 0
T636C 000:316.109 JLINK_HasError()
T636C 000:316.115 JLINK_SetResetType(JLINKARM_CM3_RESET_TYPE_NORMAL)
T636C 000:316.120 - 0.007ms returns JLINKARM_CM3_RESET_TYPE_NORMAL
T636C 000:316.126 JLINK_Reset()
T636C 000:316.138   CPU is running
T636C 000:316.147   CPU_WriteMem(4 bytes @ 0xE000EDF0)
T636C 000:316.590   CPU is running
T636C 000:316.601   CPU_WriteMem(4 bytes @ 0xE000EDFC)
T636C 000:319.680   Reset: Halt core after reset via DEMCR.VC_CORERESET.
T636C 000:322.388   Reset: Reset device via AIRCR.SYSRESETREQ.
T636C 000:322.405   CPU is running
T636C 000:322.415   CPU_WriteMem(4 bytes @ 0xE000ED0C)
T636C 000:375.401   CPU_ReadMem(4 bytes @ 0xE000EDF0)
T636C 000:375.983   CPU_ReadMem(4 bytes @ 0xE000EDF0)
T636C 000:376.511   CPU is running
T636C 000:376.527   CPU_WriteMem(4 bytes @ 0xE000EDF0)
T636C 000:377.065   CPU is running
T636C 000:377.111   CPU_WriteMem(4 bytes @ 0xE000EDFC)
T636C 000:383.492   CPU_ReadMem(4 bytes @ 0xE000EDF0)
T636C 000:387.265   CPU_WriteMem(4 bytes @ 0xE0002000)
T636C 000:387.917   CPU_ReadMem(4 bytes @ 0xE000EDFC)
T636C 000:388.395   CPU_ReadMem(4 bytes @ 0xE0001000)
T636C 000:388.947   CPU_WriteMem(4 bytes @ 0xE0001000)
T636C 000:389.473 - 73.357ms
T636C 000:389.518 JLINK_Halt()
T636C 000:389.527 - 0.043ms returns 0x00
T636C 000:389.570 JLINK_ReadMemU32(0xE000EDF0, 0x1 Items)
T636C 000:389.588   CPU_ReadMem(4 bytes @ 0xE000EDF0)
T636C 000:390.057   Data:  03 00 03 01
T636C 000:390.070   Debug reg: DHCSR
T636C 000:390.077 - 0.510ms returns 1 (0x1)
T636C 000:390.089 JLINK_WriteU32_64(0xE000EDF0, 0xA05F0003)
T636C 000:390.100   Debug reg: DHCSR
T636C 000:390.333   CPU_WriteMem(4 bytes @ 0xE000EDF0)
T636C 000:390.954 - 0.873ms returns 0 (0x00000000)
T636C 000:390.995 JLINK_WriteU32_64(0xE000EDFC, 0x01000000)
T636C 000:391.002   Debug reg: DEMCR
T636C 000:391.015   CPU_WriteMem(4 bytes @ 0xE000EDFC)
T636C 000:391.460 - 0.475ms returns 0 (0x00000000)
T636C 000:432.772 JLINK_GetHWStatus(...)
T636C 000:433.031 - 0.270ms returns 0
T636C 000:461.353 JLINK_GetNumBPUnits(Type = 0xFFFFFF00)
T636C 000:461.387 - 0.038ms returns 0x04
T636C 000:461.398 JLINK_GetNumBPUnits(Type = 0xF0)
T636C 000:461.406 - 0.012ms returns 0x2000
T636C 000:461.415 JLINK_GetNumWPUnits()
T636C 000:461.423 - 0.011ms returns 1
T636C 000:491.594 JLINK_GetSpeed()
T636C 000:491.622 - 0.032ms returns 2000
T636C 000:501.862 JLINK_ReadMemU32(0xE000E004, 0x1 Items)
T636C 000:501.903   CPU_ReadMem(4 bytes @ 0xE000E004)
T636C 000:502.348   Data:  00 00 00 00
T636C 000:502.365 - 0.505ms returns 1 (0x1)
T636C 000:502.377 JLINK_Halt()
T636C 000:502.383 - 0.008ms returns 0x00
T636C 000:502.390 JLINK_IsHalted()
T636C 000:502.396 - 0.008ms returns TRUE
T636C 000:503.850 JLINK_WriteMem(0x20000000, 0x1DC Bytes, ...)
T636C 000:503.863   Data:  00 BE 0A E0 0D 78 2D 06 68 40 08 24 40 00 00 D3 ...
T636C 000:504.074   CPU_WriteMem(476 bytes @ 0x20000000)
T636C 000:510.069 - 6.234ms returns 0x1DC
T636C 000:510.120 JLINK_HasError()
T636C 000:510.131 JLINK_WriteReg(R0, 0x00000000)
T636C 000:510.141 - 0.013ms returns 0
T636C 000:510.148 JLINK_WriteReg(R1, 0x00B71B00)
T636C 000:510.154 - 0.008ms returns 0
T636C 000:510.161 JLINK_WriteReg(R2, 0x00000001)
T636C 000:510.167 - 0.008ms returns 0
T636C 000:510.173 JLINK_WriteReg(R3, 0x00000000)
T636C 000:510.179 - 0.008ms returns 0
T636C 000:510.185 JLINK_WriteReg(R4, 0x00000000)
T636C 000:510.191 - 0.008ms returns 0
T636C 000:510.198 JLINK_WriteReg(R5, 0x00000000)
T636C 000:510.203 - 0.008ms returns 0
T636C 000:510.210 JLINK_WriteReg(R6, 0x00000000)
T636C 000:510.215 - 0.008ms returns 0
T636C 000:510.222 JLINK_WriteReg(R7, 0x00000000)
T636C 000:510.227 - 0.008ms returns 0
T636C 000:510.234 JLINK_WriteReg(R8, 0x00000000)
T636C 000:510.245 - 0.014ms returns 0
T636C 000:510.252 JLINK_WriteReg(R9, 0x200001C8)
T636C 000:510.257 - 0.008ms returns 0
T636C 000:510.264 JLINK_WriteReg(R10, 0x00000000)
T636C 000:510.269 - 0.008ms returns 0
T636C 000:510.276 JLINK_WriteReg(R11, 0x00000000)
T636C 000:510.282 - 0.008ms returns 0
T636C 000:510.288 JLINK_WriteReg(R12, 0x00000000)
T636C 000:510.293 - 0.008ms returns 0
T636C 000:510.300 JLINK_WriteReg(R13 (SP), 0x20001000)
T636C 000:510.306 - 0.009ms returns 0
T636C 000:510.313 JLINK_WriteReg(R14, 0x20000001)
T636C 000:510.318 - 0.008ms returns 0
T636C 000:510.325 JLINK_WriteReg(R15 (PC), 0x20000040)
T636C 000:510.333 - 0.011ms returns 0
T636C 000:510.340 JLINK_WriteReg(XPSR, 0x01000000)
T636C 000:510.346 - 0.008ms returns 0
T636C 000:510.352 JLINK_WriteReg(MSP, 0x20001000)
T636C 000:510.358 - 0.008ms returns 0
T636C 000:510.364 JLINK_WriteReg(PSP, 0x20001000)
T636C 000:510.370 - 0.008ms returns 0
T636C 000:510.376 JLINK_WriteReg(CFBP, 0x00000000)
T636C 000:510.382 - 0.008ms returns 0
T636C 000:510.389 JLINK_SetBPEx(Addr = 0x20000000, Type = 0xFFFFFFF2)
T636C 000:510.400   CPU_ReadMem(4 bytes @ 0x20000000)
T636C 000:510.839   CPU_WriteMem(4 bytes @ 0x20000000)
T636C 000:511.304   CPU_ReadMem(4 bytes @ 0x20000000)
T636C 000:511.732   CPU_WriteMem(4 bytes @ 0x20000000)
T636C 000:512.196   CPU_ReadMem(2 bytes @ 0x20000000)
T636C 000:512.650 - 2.272ms returns 0x00000001
T636C 000:512.671 JLINK_Go()
T636C 000:512.684   CPU_WriteMem(2 bytes @ 0x20000000)
T636C 000:513.157   CPU_ReadMem(4 bytes @ 0xE0001000)
T636C 000:513.594   CPU_WriteMem(4 bytes @ 0xE0001000)
T636C 000:513.613   CPU_WriteMem(4 bytes @ 0xE0002008)
T636C 000:513.621   CPU_WriteMem(4 bytes @ 0xE000200C)
T636C 000:513.629   CPU_WriteMem(4 bytes @ 0xE0002010)
T636C 000:513.637   CPU_WriteMem(4 bytes @ 0xE0002014)
T636C 000:515.523   CPU_WriteMem(4 bytes @ 0xE0001004)
T636C 000:518.978 - 6.322ms
T636C 000:519.042 JLINK_IsHalted()
T636C 000:522.145   CPU_ReadMem(2 bytes @ 0x20000000)
T636C 000:522.602 - 3.571ms returns TRUE
T636C 000:522.622 JLINK_ReadReg(R15 (PC))
T636C 000:522.634 - 0.015ms returns 0x20000000
T636C 000:522.643 JLINK_ClrBPEx(BPHandle = 0x00000001)
T636C 000:522.651 - 0.010ms returns 0x00
T636C 000:522.658 JLINK_ReadReg(R0)
T636C 000:522.665 - 0.009ms returns 0x00000000
T636C 000:522.692 JLINK_HasError()
T636C 000:522.701 JLINK_WriteReg(R0, 0x00000000)
T636C 000:522.708 - 0.010ms returns 0
T636C 000:522.715 JLINK_WriteReg(R1, 0x00B71B00)
T636C 000:522.721 - 0.009ms returns 0
T636C 000:522.728 JLINK_WriteReg(R2, 0x00000001)
T636C 000:522.734 - 0.008ms returns 0
T636C 000:522.740 JLINK_WriteReg(R3, 0x00000000)
T636C 000:522.747 - 0.009ms returns 0
T636C 000:522.754 JLINK_WriteReg(R4, 0x00000000)
T636C 000:522.760 - 0.008ms returns 0
T636C 000:522.766 JLINK_WriteReg(R5, 0x00000000)
T636C 000:522.772 - 0.009ms returns 0
T636C 000:522.779 JLINK_WriteReg(R6, 0x00000000)
T636C 000:522.785 - 0.009ms returns 0
T636C 000:522.792 JLINK_WriteReg(R7, 0x00000000)
T636C 000:522.798 - 0.008ms returns 0
T636C 000:522.805 JLINK_WriteReg(R8, 0x00000000)
T636C 000:522.811 - 0.008ms returns 0
T636C 000:522.817 JLINK_WriteReg(R9, 0x200001C8)
T636C 000:522.823 - 0.008ms returns 0
T636C 000:522.830 JLINK_WriteReg(R10, 0x00000000)
T636C 000:522.836 - 0.009ms returns 0
T636C 000:522.843 JLINK_WriteReg(R11, 0x00000000)
T636C 000:522.849 - 0.008ms returns 0
T636C 000:522.855 JLINK_WriteReg(R12, 0x00000000)
T636C 000:522.861 - 0.009ms returns 0
T636C 000:522.868 JLINK_WriteReg(R13 (SP), 0x20001000)
T636C 000:522.874 - 0.009ms returns 0
T636C 000:522.881 JLINK_WriteReg(R14, 0x20000001)
T636C 000:522.887 - 0.009ms returns 0
T636C 000:522.894 JLINK_WriteReg(R15 (PC), 0x200000DE)
T636C 000:522.900 - 0.008ms returns 0
T636C 000:522.907 JLINK_WriteReg(XPSR, 0x01000000)
T636C 000:522.913 - 0.009ms returns 0
T636C 000:522.920 JLINK_WriteReg(MSP, 0x20001000)
T636C 000:522.926 - 0.008ms returns 0
T636C 000:522.932 JLINK_WriteReg(PSP, 0x20001000)
T636C 000:522.938 - 0.008ms returns 0
T636C 000:522.945 JLINK_WriteReg(CFBP, 0x00000000)
T636C 000:522.951 - 0.008ms returns 0
T636C 000:522.958 JLINK_SetBPEx(Addr = 0x20000000, Type = 0xFFFFFFF2)
T636C 000:522.965 - 0.009ms returns 0x00000002
T636C 000:522.972 JLINK_Go()
T636C 000:522.983   CPU_ReadMem(4 bytes @ 0xE0001000)
T636C 000:523.415   CPU_WriteMem(4 bytes @ 0xE0001000)
T636C 000:526.916 - 3.955ms
T636C 000:526.935 JLINK_IsHalted()
T636C 000:527.341 - 0.417ms returns FALSE
T636C 000:527.362 JLINK_HasError()
T636C 000:545.145 JLINK_IsHalted()
T636C 000:545.572 - 0.435ms returns FALSE
T636C 000:545.586 JLINK_HasError()
T636C 000:547.452 JLINK_IsHalted()
T636C 000:547.918 - 0.478ms returns FALSE
T636C 000:547.940 JLINK_HasError()
T636C 000:549.623 JLINK_IsHalted()
T636C 000:550.045 - 0.430ms returns FALSE
T636C 000:550.060 JLINK_HasError()
T636C 000:551.120 JLINK_IsHalted()
T636C 000:551.519 - 0.404ms returns FALSE
T636C 000:551.530 JLINK_HasError()
T636C 000:553.227 JLINK_IsHalted()
T636C 000:553.655 - 0.436ms returns FALSE
T636C 000:553.669 JLINK_HasError()
T636C 000:555.303 JLINK_IsHalted()
T636C 000:555.714 - 0.421ms returns FALSE
T636C 000:555.731 JLINK_HasError()
T636C 000:557.617 JLINK_IsHalted()
T636C 000:558.021 - 0.415ms returns FALSE
T636C 000:558.041 JLINK_HasError()
T636C 000:560.377 JLINK_IsHalted()
T636C 000:560.781 - 0.412ms returns FALSE
T636C 000:560.796 JLINK_HasError()
T636C 000:562.864 JLINK_IsHalted()
T636C 000:566.033   CPU_ReadMem(2 bytes @ 0x20000000)
T636C 000:566.530 - 3.676ms returns TRUE
T636C 000:566.550 JLINK_ReadReg(R15 (PC))
T636C 000:566.559 - 0.012ms returns 0x20000000
T636C 000:566.566 JLINK_ClrBPEx(BPHandle = 0x00000002)
T636C 000:566.572 - 0.009ms returns 0x00
T636C 000:566.579 JLINK_ReadReg(R0)
T636C 000:566.585 - 0.008ms returns 0x00000000
T636C 000:617.713 JLINK_HasError()
T636C 000:617.737 JLINK_WriteReg(R0, 0x00000001)
T636C 000:617.749 - 0.015ms returns 0
T636C 000:617.756 JLINK_WriteReg(R1, 0x00B71B00)
T636C 000:617.762 - 0.008ms returns 0
T636C 000:617.769 JLINK_WriteReg(R2, 0x00000001)
T636C 000:617.774 - 0.008ms returns 0
T636C 000:617.780 JLINK_WriteReg(R3, 0x00000000)
T636C 000:617.786 - 0.008ms returns 0
T636C 000:617.792 JLINK_WriteReg(R4, 0x00000000)
T636C 000:617.797 - 0.008ms returns 0
T636C 000:617.803 JLINK_WriteReg(R5, 0x00000000)
T636C 000:617.809 - 0.008ms returns 0
T636C 000:617.815 JLINK_WriteReg(R6, 0x00000000)
T636C 000:617.820 - 0.008ms returns 0
T636C 000:617.826 JLINK_WriteReg(R7, 0x00000000)
T636C 000:617.832 - 0.008ms returns 0
T636C 000:617.838 JLINK_WriteReg(R8, 0x00000000)
T636C 000:617.843 - 0.008ms returns 0
T636C 000:617.849 JLINK_WriteReg(R9, 0x200001C8)
T636C 000:617.855 - 0.008ms returns 0
T636C 000:617.861 JLINK_WriteReg(R10, 0x00000000)
T636C 000:617.867 - 0.008ms returns 0
T636C 000:617.873 JLINK_WriteReg(R11, 0x00000000)
T636C 000:617.878 - 0.008ms returns 0
T636C 000:617.884 JLINK_WriteReg(R12, 0x00000000)
T636C 000:617.890 - 0.008ms returns 0
T636C 000:617.896 JLINK_WriteReg(R13 (SP), 0x20001000)
T636C 000:617.903 - 0.009ms returns 0
T636C 000:617.909 JLINK_WriteReg(R14, 0x20000001)
T636C 000:617.914 - 0.008ms returns 0
T636C 000:617.920 JLINK_WriteReg(R15 (PC), 0x200000C2)
T636C 000:617.926 - 0.008ms returns 0
T636C 000:617.932 JLINK_WriteReg(XPSR, 0x01000000)
T636C 000:617.938 - 0.008ms returns 0
T636C 000:617.944 JLINK_WriteReg(MSP, 0x20001000)
T636C 000:617.949 - 0.008ms returns 0
T636C 000:617.955 JLINK_WriteReg(PSP, 0x20001000)
T636C 000:617.961 - 0.008ms returns 0
T636C 000:617.967 JLINK_WriteReg(CFBP, 0x00000000)
T636C 000:617.972 - 0.007ms returns 0
T636C 000:617.978 JLINK_SetBPEx(Addr = 0x20000000, Type = 0xFFFFFFF2)
T636C 000:617.985 - 0.009ms returns 0x00000003
T636C 000:617.991 JLINK_Go()
T636C 000:618.005   CPU_ReadMem(4 bytes @ 0xE0001000)
T636C 000:618.449   CPU_WriteMem(4 bytes @ 0xE0001000)
T636C 000:621.969 - 3.989ms
T636C 000:622.024 JLINK_IsHalted()
T636C 000:625.107   CPU_ReadMem(2 bytes @ 0x20000000)
T636C 000:625.555 - 3.541ms returns TRUE
T636C 000:625.572 JLINK_ReadReg(R15 (PC))
T636C 000:625.602 - 0.033ms returns 0x20000000
T636C 000:625.610 JLINK_ClrBPEx(BPHandle = 0x00000003)
T636C 000:625.616 - 0.009ms returns 0x00
T636C 000:625.623 JLINK_ReadReg(R0)
T636C 000:625.629 - 0.008ms returns 0x00000000
T636C 000:629.912 JLINK_WriteMem(0x20000000, 0x1DC Bytes, ...)
T636C 000:629.927   Data:  00 BE 0A E0 0D 78 2D 06 68 40 08 24 40 00 00 D3 ...
T636C 000:629.945   CPU_WriteMem(476 bytes @ 0x20000000)
T636C 000:635.926 - 6.028ms returns 0x1DC
T636C 000:635.975 JLINK_HasError()
T636C 000:635.985 JLINK_WriteReg(R0, 0x00000000)
T636C 000:635.996 - 0.013ms returns 0
T636C 000:636.003 JLINK_WriteReg(R1, 0x00B71B00)
T636C 000:636.009 - 0.009ms returns 0
T636C 000:636.016 JLINK_WriteReg(R2, 0x00000002)
T636C 000:636.022 - 0.008ms returns 0
T636C 000:636.029 JLINK_WriteReg(R3, 0x00000000)
T636C 000:636.035 - 0.009ms returns 0
T636C 000:636.041 JLINK_WriteReg(R4, 0x00000000)
T636C 000:636.047 - 0.008ms returns 0
T636C 000:636.054 JLINK_WriteReg(R5, 0x00000000)
T636C 000:636.060 - 0.008ms returns 0
T636C 000:636.066 JLINK_WriteReg(R6, 0x00000000)
T636C 000:636.073 - 0.009ms returns 0
T636C 000:636.079 JLINK_WriteReg(R7, 0x00000000)
T636C 000:636.085 - 0.008ms returns 0
T636C 000:636.091 JLINK_WriteReg(R8, 0x00000000)
T636C 000:636.098 - 0.009ms returns 0
T636C 000:636.104 JLINK_WriteReg(R9, 0x200001C8)
T636C 000:636.110 - 0.008ms returns 0
T636C 000:636.116 JLINK_WriteReg(R10, 0x00000000)
T636C 000:636.127 - 0.015ms returns 0
T636C 000:636.136 JLINK_WriteReg(R11, 0x00000000)
T636C 000:636.142 - 0.009ms returns 0
T636C 000:636.149 JLINK_WriteReg(R12, 0x00000000)
T636C 000:636.155 - 0.008ms returns 0
T636C 000:636.161 JLINK_WriteReg(R13 (SP), 0x20001000)
T636C 000:636.168 - 0.009ms returns 0
T636C 000:636.175 JLINK_WriteReg(R14, 0x20000001)
T636C 000:636.181 - 0.008ms returns 0
T636C 000:636.187 JLINK_WriteReg(R15 (PC), 0x20000040)
T636C 000:636.194 - 0.009ms returns 0
T636C 000:636.200 JLINK_WriteReg(XPSR, 0x01000000)
T636C 000:636.207 - 0.008ms returns 0
T636C 000:636.213 JLINK_WriteReg(MSP, 0x20001000)
T636C 000:636.219 - 0.008ms returns 0
T636C 000:636.226 JLINK_WriteReg(PSP, 0x20001000)
T636C 000:636.232 - 0.008ms returns 0
T636C 000:636.239 JLINK_WriteReg(CFBP, 0x00000000)
T636C 000:636.245 - 0.009ms returns 0
T636C 000:636.251 JLINK_SetBPEx(Addr = 0x20000000, Type = 0xFFFFFFF2)
T636C 000:636.263   CPU_ReadMem(4 bytes @ 0x20000000)
T636C 000:636.695   CPU_WriteMem(4 bytes @ 0x20000000)
T636C 000:637.142   CPU_ReadMem(4 bytes @ 0x20000000)
T636C 000:637.565   CPU_WriteMem(4 bytes @ 0x20000000)
T636C 000:638.021   CPU_ReadMem(2 bytes @ 0x20000000)
T636C 000:638.450 - 2.205ms returns 0x00000004
T636C 000:638.463 JLINK_Go()
T636C 000:638.474   CPU_WriteMem(2 bytes @ 0x20000000)
T636C 000:638.918   CPU_ReadMem(4 bytes @ 0xE0001000)
T636C 000:639.332   CPU_WriteMem(4 bytes @ 0xE0001000)
T636C 000:642.749 - 4.296ms
T636C 000:642.767 JLINK_IsHalted()
T636C 000:645.942   CPU_ReadMem(2 bytes @ 0x20000000)
T636C 000:646.388 - 3.630ms returns TRUE
T636C 000:646.405 JLINK_ReadReg(R15 (PC))
T636C 000:646.414 - 0.012ms returns 0x20000000
T636C 000:646.422 JLINK_ClrBPEx(BPHandle = 0x00000004)
T636C 000:646.428 - 0.009ms returns 0x00
T636C 000:646.435 JLINK_ReadReg(R0)
T636C 000:646.441 - 0.008ms returns 0x00000000
T636C 000:646.471 JLINK_WriteMem(0x200001DC, 0x200 Bytes, ...)
T636C 000:646.479   Data:  70 07 00 20 D5 00 00 00 75 1D 00 00 4D 18 00 00 ...
T636C 000:646.493   CPU_WriteMem(512 bytes @ 0x200001DC)
T636C 000:652.920 - 6.476ms returns 0x200
T636C 000:653.019 JLINK_HasError()
T636C 000:653.032 JLINK_WriteReg(R0, 0x00000000)
T636C 000:653.048 - 0.019ms returns 0
T636C 000:653.056 JLINK_WriteReg(R1, 0x00000200)
T636C 000:653.062 - 0.009ms returns 0
T636C 000:653.069 JLINK_WriteReg(R2, 0x200001DC)
T636C 000:653.075 - 0.008ms returns 0
T636C 000:653.082 JLINK_WriteReg(R3, 0x00000000)
T636C 000:653.088 - 0.009ms returns 0
T636C 000:653.095 JLINK_WriteReg(R4, 0x00000000)
T636C 000:653.101 - 0.009ms returns 0
T636C 000:653.108 JLINK_WriteReg(R5, 0x00000000)
T636C 000:653.114 - 0.009ms returns 0
T636C 000:653.121 JLINK_WriteReg(R6, 0x00000000)
T636C 000:653.127 - 0.008ms returns 0
T636C 000:653.133 JLINK_WriteReg(R7, 0x00000000)
T636C 000:653.140 - 0.009ms returns 0
T636C 000:653.147 JLINK_WriteReg(R8, 0x00000000)
T636C 000:653.153 - 0.009ms returns 0
T636C 000:653.160 JLINK_WriteReg(R9, 0x200001C8)
T636C 000:653.166 - 0.009ms returns 0
T636C 000:653.173 JLINK_WriteReg(R10, 0x00000000)
T636C 000:653.179 - 0.008ms returns 0
T636C 000:653.186 JLINK_WriteReg(R11, 0x00000000)
T636C 000:653.192 - 0.009ms returns 0
T636C 000:653.198 JLINK_WriteReg(R12, 0x00000000)
T636C 000:653.205 - 0.009ms returns 0
T636C 000:653.211 JLINK_WriteReg(R13 (SP), 0x20001000)
T636C 000:653.219 - 0.010ms returns 0
T636C 000:653.226 JLINK_WriteReg(R14, 0x20000001)
T636C 000:653.232 - 0.008ms returns 0
T636C 000:653.238 JLINK_WriteReg(R15 (PC), 0x20000144)
T636C 000:653.244 - 0.008ms returns 0
T636C 000:653.251 JLINK_WriteReg(XPSR, 0x01000000)
T636C 000:653.257 - 0.009ms returns 0
T636C 000:653.263 JLINK_WriteReg(MSP, 0x20001000)
T636C 000:653.269 - 0.008ms returns 0
T636C 000:653.276 JLINK_WriteReg(PSP, 0x20001000)
T636C 000:653.282 - 0.008ms returns 0
T636C 000:653.289 JLINK_WriteReg(CFBP, 0x00000000)
T636C 000:653.295 - 0.009ms returns 0
T636C 000:653.302 JLINK_SetBPEx(Addr = 0x20000000, Type = 0xFFFFFFF2)
T636C 000:653.309 - 0.010ms returns 0x00000005
T636C 000:653.319 JLINK_Go()
T636C 000:653.333   CPU_ReadMem(4 bytes @ 0xE0001000)
T636C 000:653.772   CPU_WriteMem(4 bytes @ 0xE0001000)
T636C 000:657.224 - 3.919ms
T636C 000:657.248 JLINK_IsHalted()
T636C 000:657.648 - 0.408ms returns FALSE
T636C 000:657.663 JLINK_HasError()
T636C 000:664.904 JLINK_IsHalted()
T636C 000:668.039   CPU_ReadMem(2 bytes @ 0x20000000)
T636C 000:668.490 - 3.593ms returns TRUE
T636C 000:668.506 JLINK_ReadReg(R15 (PC))
T636C 000:668.515 - 0.012ms returns 0x20000000
T636C 000:668.522 JLINK_ClrBPEx(BPHandle = 0x00000005)
T636C 000:668.528 - 0.009ms returns 0x00
T636C 000:668.536 JLINK_ReadReg(R0)
T636C 000:668.542 - 0.009ms returns 0x00000000
T636C 000:668.578 JLINK_WriteMem(0x200001DC, 0x200 Bytes, ...)
T636C 000:668.585   Data:  50 43 A4 19 42 19 20 0C C5 43 AA 18 12 0C 01 25 ...
T636C 000:668.599   CPU_WriteMem(512 bytes @ 0x200001DC)
T636C 000:674.989 - 6.428ms returns 0x200
T636C 000:675.020 JLINK_HasError()
T636C 000:675.033 JLINK_WriteReg(R0, 0x00000200)
T636C 000:675.050 - 0.022ms returns 0
T636C 000:675.062 JLINK_WriteReg(R1, 0x00000200)
T636C 000:675.072 - 0.014ms returns 0
T636C 000:675.082 JLINK_WriteReg(R2, 0x200001DC)
T636C 000:675.092 - 0.014ms returns 0
T636C 000:675.102 JLINK_WriteReg(R3, 0x00000000)
T636C 000:675.113 - 0.014ms returns 0
T636C 000:675.122 JLINK_WriteReg(R4, 0x00000000)
T636C 000:675.131 - 0.013ms returns 0
T636C 000:675.142 JLINK_WriteReg(R5, 0x00000000)
T636C 000:675.151 - 0.013ms returns 0
T636C 000:675.161 JLINK_WriteReg(R6, 0x00000000)
T636C 000:675.171 - 0.014ms returns 0
T636C 000:675.181 JLINK_WriteReg(R7, 0x00000000)
T636C 000:675.190 - 0.013ms returns 0
T636C 000:675.200 JLINK_WriteReg(R8, 0x00000000)
T636C 000:675.211 - 0.014ms returns 0
T636C 000:675.220 JLINK_WriteReg(R9, 0x200001C8)
T636C 000:675.230 - 0.013ms returns 0
T636C 000:675.239 JLINK_WriteReg(R10, 0x00000000)
T636C 000:675.249 - 0.013ms returns 0
T636C 000:675.259 JLINK_WriteReg(R11, 0x00000000)
T636C 000:675.269 - 0.014ms returns 0
T636C 000:675.279 JLINK_WriteReg(R12, 0x00000000)
T636C 000:675.289 - 0.013ms returns 0
T636C 000:675.299 JLINK_WriteReg(R13 (SP), 0x20001000)
T636C 000:675.308 - 0.013ms returns 0
T636C 000:675.318 JLINK_WriteReg(R14, 0x20000001)
T636C 000:675.328 - 0.014ms returns 0
T636C 000:675.338 JLINK_WriteReg(R15 (PC), 0x20000144)
T636C 000:675.348 - 0.014ms returns 0
T636C 000:675.358 JLINK_WriteReg(XPSR, 0x01000000)
T636C 000:675.369 - 0.014ms returns 0
T636C 000:675.379 JLINK_WriteReg(MSP, 0x20001000)
T636C 000:675.389 - 0.015ms returns 0
T636C 000:675.400 JLINK_WriteReg(PSP, 0x20001000)
T636C 000:675.409 - 0.013ms returns 0
T636C 000:675.419 JLINK_WriteReg(CFBP, 0x00000000)
T636C 000:675.428 - 0.013ms returns 0
T636C 000:675.438 JLINK_SetBPEx(Addr = 0x20000000, Type = 0xFFFFFFF2)
T636C 000:675.448 - 0.014ms returns 0x00000006
T636C 000:675.458 JLINK_Go()
T636C 000:675.474   CPU_ReadMem(4 bytes @ 0xE0001000)
T636C 000:675.920   CPU_WriteMem(4 bytes @ 0xE0001000)
T636C 000:679.380 - 3.935ms
T636C 000:679.413 JLINK_IsHalted()
T636C 000:679.823 - 0.420ms returns FALSE
T636C 000:679.850 JLINK_HasError()
T636C 000:682.696 JLINK_IsHalted()
T636C 000:683.128 - 0.443ms returns FALSE
T636C 000:683.149 JLINK_HasError()
T636C 000:685.193 JLINK_IsHalted()
T636C 000:685.628 - 0.444ms returns FALSE
T636C 000:685.644 JLINK_HasError()
T636C 000:687.355 JLINK_IsHalted()
T636C 000:690.498   CPU_ReadMem(2 bytes @ 0x20000000)
T636C 000:690.948 - 3.602ms returns TRUE
T636C 000:690.967 JLINK_ReadReg(R15 (PC))
T636C 000:690.981 - 0.018ms returns 0x20000000
T636C 000:690.992 JLINK_ClrBPEx(BPHandle = 0x00000006)
T636C 000:691.002 - 0.015ms returns 0x00
T636C 000:691.013 JLINK_ReadReg(R0)
T636C 000:691.022 - 0.013ms returns 0x00000000
T636C 000:691.068 JLINK_WriteMem(0x200001DC, 0x200 Bytes, ...)
T636C 000:691.081   Data:  00 23 8B 41 04 98 31 46 C4 17 38 1A A1 41 EE E7 ...
T636C 000:691.100   CPU_WriteMem(512 bytes @ 0x200001DC)
T636C 000:697.486 - 6.434ms returns 0x200
T636C 000:697.515 JLINK_HasError()
T636C 000:697.530 JLINK_WriteReg(R0, 0x00000400)
T636C 000:697.547 - 0.020ms returns 0
T636C 000:697.555 JLINK_WriteReg(R1, 0x00000200)
T636C 000:697.562 - 0.010ms returns 0
T636C 000:697.571 JLINK_WriteReg(R2, 0x200001DC)
T636C 000:697.580 - 0.013ms returns 0
T636C 000:697.591 JLINK_WriteReg(R3, 0x00000000)
T636C 000:697.600 - 0.013ms returns 0
T636C 000:697.610 JLINK_WriteReg(R4, 0x00000000)
T636C 000:697.620 - 0.014ms returns 0
T636C 000:697.630 JLINK_WriteReg(R5, 0x00000000)
T636C 000:697.639 - 0.013ms returns 0
T636C 000:697.649 JLINK_WriteReg(R6, 0x00000000)
T636C 000:697.658 - 0.014ms returns 0
T636C 000:697.668 JLINK_WriteReg(R7, 0x00000000)
T636C 000:697.678 - 0.014ms returns 0
T636C 000:697.688 JLINK_WriteReg(R8, 0x00000000)
T636C 000:697.698 - 0.014ms returns 0
T636C 000:697.708 JLINK_WriteReg(R9, 0x200001C8)
T636C 000:697.717 - 0.013ms returns 0
T636C 000:697.726 JLINK_WriteReg(R10, 0x00000000)
T636C 000:697.735 - 0.013ms returns 0
T636C 000:697.746 JLINK_WriteReg(R11, 0x00000000)
T636C 000:697.755 - 0.013ms returns 0
T636C 000:697.765 JLINK_WriteReg(R12, 0x00000000)
T636C 000:697.775 - 0.013ms returns 0
T636C 000:697.784 JLINK_WriteReg(R13 (SP), 0x20001000)
T636C 000:697.795 - 0.015ms returns 0
T636C 000:697.805 JLINK_WriteReg(R14, 0x20000001)
T636C 000:697.815 - 0.014ms returns 0
T636C 000:697.824 JLINK_WriteReg(R15 (PC), 0x20000144)
T636C 000:697.835 - 0.014ms returns 0
T636C 000:697.845 JLINK_WriteReg(XPSR, 0x01000000)
T636C 000:697.855 - 0.014ms returns 0
T636C 000:697.864 JLINK_WriteReg(MSP, 0x20001000)
T636C 000:697.873 - 0.012ms returns 0
T636C 000:697.883 JLINK_WriteReg(PSP, 0x20001000)
T636C 000:697.893 - 0.013ms returns 0
T636C 000:697.902 JLINK_WriteReg(CFBP, 0x00000000)
T636C 000:697.911 - 0.013ms returns 0
T636C 000:697.921 JLINK_SetBPEx(Addr = 0x20000000, Type = 0xFFFFFFF2)
T636C 000:697.932 - 0.015ms returns 0x00000007
T636C 000:697.942 JLINK_Go()
T636C 000:697.959   CPU_ReadMem(4 bytes @ 0xE0001000)
T636C 000:698.409   CPU_WriteMem(4 bytes @ 0xE0001000)
T636C 000:701.919 - 3.994ms
T636C 000:701.949 JLINK_IsHalted()
T636C 000:702.355 - 0.417ms returns FALSE
T636C 000:702.376 JLINK_HasError()
T636C 000:711.688 JLINK_IsHalted()
T636C 000:714.842   CPU_ReadMem(2 bytes @ 0x20000000)
T636C 000:715.307 - 3.630ms returns TRUE
T636C 000:715.328 JLINK_ReadReg(R15 (PC))
T636C 000:715.343 - 0.020ms returns 0x20000000
T636C 000:715.355 JLINK_ClrBPEx(BPHandle = 0x00000007)
T636C 000:715.365 - 0.014ms returns 0x00
T636C 000:715.376 JLINK_ReadReg(R0)
T636C 000:715.386 - 0.015ms returns 0x00000000
T636C 000:715.432 JLINK_WriteMem(0x200001DC, 0x200 Bytes, ...)
T636C 000:715.445   Data:  70 BC 70 47 DB 05 18 18 80 18 00 29 F8 DA 40 1C ...
T636C 000:715.465   CPU_WriteMem(512 bytes @ 0x200001DC)
T636C 000:721.958 - 6.541ms returns 0x200
T636C 000:721.983 JLINK_HasError()
T636C 000:721.992 JLINK_WriteReg(R0, 0x00000600)
T636C 000:722.004 - 0.014ms returns 0
T636C 000:722.011 JLINK_WriteReg(R1, 0x00000200)
T636C 000:722.017 - 0.010ms returns 0
T636C 000:722.025 JLINK_WriteReg(R2, 0x200001DC)
T636C 000:722.032 - 0.009ms returns 0
T636C 000:722.038 JLINK_WriteReg(R3, 0x00000000)
T636C 000:722.044 - 0.008ms returns 0
T636C 000:722.051 JLINK_WriteReg(R4, 0x00000000)
T636C 000:722.057 - 0.009ms returns 0
T636C 000:722.064 JLINK_WriteReg(R5, 0x00000000)
T636C 000:722.070 - 0.008ms returns 0
T636C 000:722.076 JLINK_WriteReg(R6, 0x00000000)
T636C 000:722.082 - 0.009ms returns 0
T636C 000:722.089 JLINK_WriteReg(R7, 0x00000000)
T636C 000:722.095 - 0.008ms returns 0
T636C 000:722.102 JLINK_WriteReg(R8, 0x00000000)
T636C 000:722.108 - 0.008ms returns 0
T636C 000:722.114 JLINK_WriteReg(R9, 0x200001C8)
T636C 000:722.120 - 0.008ms returns 0
T636C 000:722.127 JLINK_WriteReg(R10, 0x00000000)
T636C 000:722.132 - 0.008ms returns 0
T636C 000:722.139 JLINK_WriteReg(R11, 0x00000000)
T636C 000:722.145 - 0.008ms returns 0
T636C 000:722.152 JLINK_WriteReg(R12, 0x00000000)
T636C 000:722.158 - 0.009ms returns 0
T636C 000:722.164 JLINK_WriteReg(R13 (SP), 0x20001000)
T636C 000:722.206 - 0.046ms returns 0
T636C 000:722.216 JLINK_WriteReg(R14, 0x20000001)
T636C 000:722.222 - 0.008ms returns 0
T636C 000:722.228 JLINK_WriteReg(R15 (PC), 0x20000144)
T636C 000:722.235 - 0.008ms returns 0
T636C 000:722.241 JLINK_WriteReg(XPSR, 0x01000000)
T636C 000:722.247 - 0.008ms returns 0
T636C 000:722.254 JLINK_WriteReg(MSP, 0x20001000)
T636C 000:722.259 - 0.008ms returns 0
T636C 000:722.266 JLINK_WriteReg(PSP, 0x20001000)
T636C 000:722.272 - 0.008ms returns 0
T636C 000:722.278 JLINK_WriteReg(CFBP, 0x00000000)
T636C 000:722.284 - 0.008ms returns 0
T636C 000:722.291 JLINK_SetBPEx(Addr = 0x20000000, Type = 0xFFFFFFF2)
T636C 000:722.298 - 0.009ms returns 0x00000008
T636C 000:722.305 JLINK_Go()
T636C 000:722.318   CPU_ReadMem(4 bytes @ 0xE0001000)
T636C 000:722.771   CPU_WriteMem(4 bytes @ 0xE0001000)
T636C 000:726.312 - 4.019ms
T636C 000:726.332 JLINK_IsHalted()
T636C 000:726.751 - 0.430ms returns FALSE
T636C 000:726.773 JLINK_HasError()
T636C 000:730.657 JLINK_IsHalted()
T636C 000:731.147 - 0.500ms returns FALSE
T636C 000:731.165 JLINK_HasError()
T636C 000:733.131 JLINK_IsHalted()
T636C 000:733.570 - 0.448ms returns FALSE
T636C 000:733.587 JLINK_HasError()
T636C 000:735.294 JLINK_IsHalted()
T636C 000:738.524   CPU_ReadMem(2 bytes @ 0x20000000)
T636C 000:738.976 - 3.691ms returns TRUE
T636C 000:738.994 JLINK_ReadReg(R15 (PC))
T636C 000:739.003 - 0.012ms returns 0x20000000
T636C 000:739.010 JLINK_ClrBPEx(BPHandle = 0x00000008)
T636C 000:739.017 - 0.009ms returns 0x00
T636C 000:739.024 JLINK_ReadReg(R0)
T636C 000:739.030 - 0.008ms returns 0x00000000
T636C 000:739.115 JLINK_WriteMem(0x200001DC, 0x200 Bytes, ...)
T636C 000:739.127   Data:  00 68 20 28 05 D0 FF E7 08 98 00 68 30 28 01 D1 ...
T636C 000:739.141   CPU_WriteMem(512 bytes @ 0x200001DC)
T636C 000:745.533 - 6.432ms returns 0x200
T636C 000:745.558 JLINK_HasError()
T636C 000:745.566 JLINK_WriteReg(R0, 0x00000800)
T636C 000:745.578 - 0.014ms returns 0
T636C 000:745.585 JLINK_WriteReg(R1, 0x00000200)
T636C 000:745.591 - 0.008ms returns 0
T636C 000:745.598 JLINK_WriteReg(R2, 0x200001DC)
T636C 000:745.604 - 0.009ms returns 0
T636C 000:745.611 JLINK_WriteReg(R3, 0x00000000)
T636C 000:745.617 - 0.008ms returns 0
T636C 000:745.623 JLINK_WriteReg(R4, 0x00000000)
T636C 000:745.629 - 0.008ms returns 0
T636C 000:745.636 JLINK_WriteReg(R5, 0x00000000)
T636C 000:745.641 - 0.008ms returns 0
T636C 000:745.648 JLINK_WriteReg(R6, 0x00000000)
T636C 000:745.654 - 0.008ms returns 0
T636C 000:745.660 JLINK_WriteReg(R7, 0x00000000)
T636C 000:745.666 - 0.008ms returns 0
T636C 000:745.673 JLINK_WriteReg(R8, 0x00000000)
T636C 000:745.678 - 0.008ms returns 0
T636C 000:745.685 JLINK_WriteReg(R9, 0x200001C8)
T636C 000:745.691 - 0.008ms returns 0
T636C 000:745.697 JLINK_WriteReg(R10, 0x00000000)
T636C 000:745.703 - 0.008ms returns 0
T636C 000:745.710 JLINK_WriteReg(R11, 0x00000000)
T636C 000:745.715 - 0.008ms returns 0
T636C 000:745.722 JLINK_WriteReg(R12, 0x00000000)
T636C 000:745.728 - 0.009ms returns 0
T636C 000:745.735 JLINK_WriteReg(R13 (SP), 0x20001000)
T636C 000:745.742 - 0.009ms returns 0
T636C 000:745.748 JLINK_WriteReg(R14, 0x20000001)
T636C 000:745.754 - 0.008ms returns 0
T636C 000:745.761 JLINK_WriteReg(R15 (PC), 0x20000144)
T636C 000:745.767 - 0.008ms returns 0
T636C 000:745.773 JLINK_WriteReg(XPSR, 0x01000000)
T636C 000:745.779 - 0.008ms returns 0
T636C 000:745.786 JLINK_WriteReg(MSP, 0x20001000)
T636C 000:745.791 - 0.008ms returns 0
T636C 000:745.798 JLINK_WriteReg(PSP, 0x20001000)
T636C 000:745.804 - 0.008ms returns 0
T636C 000:745.811 JLINK_WriteReg(CFBP, 0x00000000)
T636C 000:745.817 - 0.008ms returns 0
T636C 000:745.824 JLINK_SetBPEx(Addr = 0x20000000, Type = 0xFFFFFFF2)
T636C 000:745.831 - 0.010ms returns 0x00000009
T636C 000:745.838 JLINK_Go()
T636C 000:745.850   CPU_ReadMem(4 bytes @ 0xE0001000)
T636C 000:746.286   CPU_WriteMem(4 bytes @ 0xE0001000)
T636C 000:749.702 - 3.880ms
T636C 000:749.728 JLINK_IsHalted()
T636C 000:750.146 - 0.429ms returns FALSE
T636C 000:750.168 JLINK_HasError()
T636C 000:753.299 JLINK_IsHalted()
T636C 000:753.723 - 0.432ms returns FALSE
T636C 000:753.738 JLINK_HasError()
T636C 000:756.305 JLINK_IsHalted()
T636C 000:756.733 - 0.440ms returns FALSE
T636C 000:756.795 JLINK_HasError()
T636C 000:758.830 JLINK_IsHalted()
T636C 000:762.028   CPU_ReadMem(2 bytes @ 0x20000000)
T636C 000:762.516 - 3.698ms returns TRUE
T636C 000:762.539 JLINK_ReadReg(R15 (PC))
T636C 000:762.554 - 0.019ms returns 0x20000000
T636C 000:762.565 JLINK_ClrBPEx(BPHandle = 0x00000009)
T636C 000:762.577 - 0.016ms returns 0x00
T636C 000:762.587 JLINK_ReadReg(R0)
T636C 000:762.598 - 0.014ms returns 0x00000000
T636C 000:762.800 JLINK_WriteMem(0x200001DC, 0x200 Bytes, ...)
T636C 000:762.818   Data:  08 60 00 98 40 1E 02 99 88 80 02 99 00 20 C8 80 ...
T636C 000:762.853   CPU_WriteMem(512 bytes @ 0x200001DC)
T636C 000:769.437 - 6.674ms returns 0x200
T636C 000:769.463 JLINK_HasError()
T636C 000:769.472 JLINK_WriteReg(R0, 0x00000A00)
T636C 000:769.485 - 0.016ms returns 0
T636C 000:769.492 JLINK_WriteReg(R1, 0x00000200)
T636C 000:769.498 - 0.009ms returns 0
T636C 000:769.505 JLINK_WriteReg(R2, 0x200001DC)
T636C 000:769.511 - 0.008ms returns 0
T636C 000:769.517 JLINK_WriteReg(R3, 0x00000000)
T636C 000:769.523 - 0.008ms returns 0
T636C 000:769.530 JLINK_WriteReg(R4, 0x00000000)
T636C 000:769.536 - 0.008ms returns 0
T636C 000:769.542 JLINK_WriteReg(R5, 0x00000000)
T636C 000:769.548 - 0.008ms returns 0
T636C 000:769.555 JLINK_WriteReg(R6, 0x00000000)
T636C 000:769.561 - 0.009ms returns 0
T636C 000:769.567 JLINK_WriteReg(R7, 0x00000000)
T636C 000:769.573 - 0.008ms returns 0
T636C 000:769.580 JLINK_WriteReg(R8, 0x00000000)
T636C 000:769.586 - 0.009ms returns 0
T636C 000:769.593 JLINK_WriteReg(R9, 0x200001C8)
T636C 000:769.599 - 0.008ms returns 0
T636C 000:769.606 JLINK_WriteReg(R10, 0x00000000)
T636C 000:769.612 - 0.008ms returns 0
T636C 000:769.618 JLINK_WriteReg(R11, 0x00000000)
T636C 000:769.624 - 0.008ms returns 0
T636C 000:769.631 JLINK_WriteReg(R12, 0x00000000)
T636C 000:769.637 - 0.009ms returns 0
T636C 000:769.644 JLINK_WriteReg(R13 (SP), 0x20001000)
T636C 000:769.651 - 0.010ms returns 0
T636C 000:769.657 JLINK_WriteReg(R14, 0x20000001)
T636C 000:769.663 - 0.008ms returns 0
T636C 000:769.670 JLINK_WriteReg(R15 (PC), 0x20000144)
T636C 000:769.676 - 0.008ms returns 0
T636C 000:769.682 JLINK_WriteReg(XPSR, 0x01000000)
T636C 000:769.688 - 0.008ms returns 0
T636C 000:769.695 JLINK_WriteReg(MSP, 0x20001000)
T636C 000:769.701 - 0.008ms returns 0
T636C 000:769.707 JLINK_WriteReg(PSP, 0x20001000)
T636C 000:769.713 - 0.009ms returns 0
T636C 000:769.720 JLINK_WriteReg(CFBP, 0x00000000)
T636C 000:769.726 - 0.008ms returns 0
T636C 000:769.733 JLINK_SetBPEx(Addr = 0x20000000, Type = 0xFFFFFFF2)
T636C 000:769.740 - 0.010ms returns 0x0000000A
T636C 000:769.747 JLINK_Go()
T636C 000:769.761   CPU_ReadMem(4 bytes @ 0xE0001000)
T636C 000:770.249   CPU_WriteMem(4 bytes @ 0xE0001000)
T636C 000:773.761 - 4.026ms
T636C 000:773.781 JLINK_IsHalted()
T636C 000:774.247 - 0.476ms returns FALSE
T636C 000:774.265 JLINK_HasError()
T636C 000:776.316 JLINK_IsHalted()
T636C 000:776.775 - 0.481ms returns FALSE
T636C 000:776.812 JLINK_HasError()
T636C 000:778.710 JLINK_IsHalted()
T636C 000:779.209 - 0.513ms returns FALSE
T636C 000:779.234 JLINK_HasError()
T636C 000:781.233 JLINK_IsHalted()
T636C 000:784.446   CPU_ReadMem(2 bytes @ 0x20000000)
T636C 000:784.919 - 3.696ms returns TRUE
T636C 000:784.945 JLINK_ReadReg(R15 (PC))
T636C 000:784.959 - 0.017ms returns 0x20000000
T636C 000:784.970 JLINK_ClrBPEx(BPHandle = 0x0000000A)
T636C 000:784.979 - 0.013ms returns 0x00
T636C 000:784.990 JLINK_ReadReg(R0)
T636C 000:784.999 - 0.012ms returns 0x00000000
T636C 000:785.046 JLINK_WriteMem(0x200001DC, 0x200 Bytes, ...)
T636C 000:785.057   Data:  08 60 0C E0 03 A8 00 78 FF 28 04 D1 FF E7 07 48 ...
T636C 000:785.073   CPU_WriteMem(512 bytes @ 0x200001DC)
T636C 000:791.465 - 6.439ms returns 0x200
T636C 000:791.499 JLINK_HasError()
T636C 000:791.513 JLINK_WriteReg(R0, 0x00000C00)
T636C 000:791.537 - 0.029ms returns 0
T636C 000:791.549 JLINK_WriteReg(R1, 0x00000200)
T636C 000:791.560 - 0.015ms returns 0
T636C 000:791.570 JLINK_WriteReg(R2, 0x200001DC)
T636C 000:791.580 - 0.013ms returns 0
T636C 000:791.589 JLINK_WriteReg(R3, 0x00000000)
T636C 000:791.598 - 0.012ms returns 0
T636C 000:791.606 JLINK_WriteReg(R4, 0x00000000)
T636C 000:791.611 - 0.008ms returns 0
T636C 000:791.618 JLINK_WriteReg(R5, 0x00000000)
T636C 000:791.624 - 0.009ms returns 0
T636C 000:791.630 JLINK_WriteReg(R6, 0x00000000)
T636C 000:791.636 - 0.008ms returns 0
T636C 000:791.643 JLINK_WriteReg(R7, 0x00000000)
T636C 000:791.649 - 0.008ms returns 0
T636C 000:791.656 JLINK_WriteReg(R8, 0x00000000)
T636C 000:791.663 - 0.009ms returns 0
T636C 000:791.669 JLINK_WriteReg(R9, 0x200001C8)
T636C 000:791.675 - 0.008ms returns 0
T636C 000:791.682 JLINK_WriteReg(R10, 0x00000000)
T636C 000:791.688 - 0.008ms returns 0
T636C 000:791.694 JLINK_WriteReg(R11, 0x00000000)
T636C 000:791.700 - 0.008ms returns 0
T636C 000:791.707 JLINK_WriteReg(R12, 0x00000000)
T636C 000:791.713 - 0.008ms returns 0
T636C 000:791.719 JLINK_WriteReg(R13 (SP), 0x20001000)
T636C 000:791.726 - 0.009ms returns 0
T636C 000:791.733 JLINK_WriteReg(R14, 0x20000001)
T636C 000:791.738 - 0.008ms returns 0
T636C 000:791.745 JLINK_WriteReg(R15 (PC), 0x20000144)
T636C 000:791.751 - 0.008ms returns 0
T636C 000:791.757 JLINK_WriteReg(XPSR, 0x01000000)
T636C 000:791.763 - 0.008ms returns 0
T636C 000:791.770 JLINK_WriteReg(MSP, 0x20001000)
T636C 000:791.775 - 0.008ms returns 0
T636C 000:791.782 JLINK_WriteReg(PSP, 0x20001000)
T636C 000:791.788 - 0.008ms returns 0
T636C 000:791.794 JLINK_WriteReg(CFBP, 0x00000000)
T636C 000:791.800 - 0.008ms returns 0
T636C 000:791.807 JLINK_SetBPEx(Addr = 0x20000000, Type = 0xFFFFFFF2)
T636C 000:791.814 - 0.010ms returns 0x0000000B
T636C 000:791.821 JLINK_Go()
T636C 000:791.835   CPU_ReadMem(4 bytes @ 0xE0001000)
T636C 000:792.289   CPU_WriteMem(4 bytes @ 0xE0001000)
T636C 000:795.896 - 4.090ms
T636C 000:795.920 JLINK_IsHalted()
T636C 000:796.318 - 0.409ms returns FALSE
T636C 000:796.339 JLINK_HasError()
T636C 000:798.463 JLINK_IsHalted()
T636C 000:798.917 - 0.467ms returns FALSE
T636C 000:798.940 JLINK_HasError()
T636C 000:800.400 JLINK_IsHalted()
T636C 000:800.821 - 0.430ms returns FALSE
T636C 000:800.838 JLINK_HasError()
T636C 000:802.862 JLINK_IsHalted()
T636C 000:803.287 - 0.433ms returns FALSE
T636C 000:803.303 JLINK_HasError()
T636C 000:807.266 JLINK_IsHalted()
T636C 000:810.435   CPU_ReadMem(2 bytes @ 0x20000000)
T636C 000:811.035 - 3.782ms returns TRUE
T636C 000:811.066 JLINK_ReadReg(R15 (PC))
T636C 000:811.082 - 0.020ms returns 0x20000000
T636C 000:811.095 JLINK_ClrBPEx(BPHandle = 0x0000000B)
T636C 000:811.105 - 0.014ms returns 0x00
T636C 000:811.118 JLINK_ReadReg(R0)
T636C 000:811.128 - 0.014ms returns 0x00000000
T636C 000:811.179 JLINK_WriteMem(0x200001DC, 0x200 Bytes, ...)
T636C 000:811.191   Data:  01 F0 80 FC 05 98 06 99 07 9A 01 F0 27 FC 1C 20 ...
T636C 000:811.212   CPU_WriteMem(512 bytes @ 0x200001DC)
T636C 000:817.623 - 6.463ms returns 0x200
T636C 000:817.654 JLINK_HasError()
T636C 000:817.667 JLINK_WriteReg(R0, 0x00000E00)
T636C 000:817.683 - 0.020ms returns 0
T636C 000:817.693 JLINK_WriteReg(R1, 0x00000200)
T636C 000:817.703 - 0.014ms returns 0
T636C 000:817.713 JLINK_WriteReg(R2, 0x200001DC)
T636C 000:817.723 - 0.014ms returns 0
T636C 000:817.733 JLINK_WriteReg(R3, 0x00000000)
T636C 000:817.742 - 0.013ms returns 0
T636C 000:817.752 JLINK_WriteReg(R4, 0x00000000)
T636C 000:817.762 - 0.014ms returns 0
T636C 000:817.772 JLINK_WriteReg(R5, 0x00000000)
T636C 000:817.781 - 0.013ms returns 0
T636C 000:817.791 JLINK_WriteReg(R6, 0x00000000)
T636C 000:817.801 - 0.014ms returns 0
T636C 000:817.811 JLINK_WriteReg(R7, 0x00000000)
T636C 000:817.820 - 0.013ms returns 0
T636C 000:817.830 JLINK_WriteReg(R8, 0x00000000)
T636C 000:817.840 - 0.014ms returns 0
T636C 000:817.850 JLINK_WriteReg(R9, 0x200001C8)
T636C 000:817.860 - 0.019ms returns 0
T636C 000:817.877 JLINK_WriteReg(R10, 0x00000000)
T636C 000:817.888 - 0.014ms returns 0
T636C 000:817.898 JLINK_WriteReg(R11, 0x00000000)
T636C 000:817.907 - 0.014ms returns 0
T636C 000:817.917 JLINK_WriteReg(R12, 0x00000000)
T636C 000:817.928 - 0.014ms returns 0
T636C 000:817.938 JLINK_WriteReg(R13 (SP), 0x20001000)
T636C 000:817.948 - 0.015ms returns 0
T636C 000:817.959 JLINK_WriteReg(R14, 0x20000001)
T636C 000:817.968 - 0.014ms returns 0
T636C 000:817.979 JLINK_WriteReg(R15 (PC), 0x20000144)
T636C 000:817.988 - 0.014ms returns 0
T636C 000:817.999 JLINK_WriteReg(XPSR, 0x01000000)
T636C 000:818.009 - 0.014ms returns 0
T636C 000:818.019 JLINK_WriteReg(MSP, 0x20001000)
T636C 000:818.029 - 0.014ms returns 0
T636C 000:818.039 JLINK_WriteReg(PSP, 0x20001000)
T636C 000:818.049 - 0.015ms returns 0
T636C 000:818.060 JLINK_WriteReg(CFBP, 0x00000000)
T636C 000:818.069 - 0.013ms returns 0
T636C 000:818.079 JLINK_SetBPEx(Addr = 0x20000000, Type = 0xFFFFFFF2)
T636C 000:818.090 - 0.016ms returns 0x0000000C
T636C 000:818.101 JLINK_Go()
T636C 000:818.122   CPU_ReadMem(4 bytes @ 0xE0001000)
T636C 000:818.630   CPU_WriteMem(4 bytes @ 0xE0001000)
T636C 000:822.076 - 3.988ms
T636C 000:822.098 JLINK_IsHalted()
T636C 000:822.498 - 0.410ms returns FALSE
T636C 000:822.517 JLINK_HasError()
T636C 000:827.646 JLINK_IsHalted()
T636C 000:828.074 - 0.439ms returns FALSE
T636C 000:828.093 JLINK_HasError()
T636C 000:830.420 JLINK_IsHalted()
T636C 000:833.634   CPU_ReadMem(2 bytes @ 0x20000000)
T636C 000:834.073 - 3.662ms returns TRUE
T636C 000:834.090 JLINK_ReadReg(R15 (PC))
T636C 000:834.099 - 0.012ms returns 0x20000000
T636C 000:834.107 JLINK_ClrBPEx(BPHandle = 0x0000000C)
T636C 000:834.114 - 0.009ms returns 0x00
T636C 000:834.120 JLINK_ReadReg(R0)
T636C 000:834.127 - 0.009ms returns 0x00000000
T636C 000:834.220 JLINK_WriteMem(0x200001DC, 0x200 Bytes, ...)
T636C 000:834.235   Data:  FF E7 01 98 A4 49 88 42 05 D0 FF E7 01 98 A3 49 ...
T636C 000:834.251   CPU_WriteMem(512 bytes @ 0x200001DC)
T636C 000:840.641 - 6.437ms returns 0x200
T636C 000:840.709 JLINK_HasError()
T636C 000:840.725 JLINK_WriteReg(R0, 0x00001000)
T636C 000:840.737 - 0.014ms returns 0
T636C 000:840.744 JLINK_WriteReg(R1, 0x00000200)
T636C 000:840.750 - 0.009ms returns 0
T636C 000:840.757 JLINK_WriteReg(R2, 0x200001DC)
T636C 000:840.765 - 0.012ms returns 0
T636C 000:840.775 JLINK_WriteReg(R3, 0x00000000)
T636C 000:840.784 - 0.013ms returns 0
T636C 000:840.794 JLINK_WriteReg(R4, 0x00000000)
T636C 000:840.804 - 0.014ms returns 0
T636C 000:840.814 JLINK_WriteReg(R5, 0x00000000)
T636C 000:840.823 - 0.013ms returns 0
T636C 000:840.834 JLINK_WriteReg(R6, 0x00000000)
T636C 000:840.844 - 0.013ms returns 0
T636C 000:840.853 JLINK_WriteReg(R7, 0x00000000)
T636C 000:840.863 - 0.013ms returns 0
T636C 000:840.873 JLINK_WriteReg(R8, 0x00000000)
T636C 000:840.881 - 0.012ms returns 0
T636C 000:840.890 JLINK_WriteReg(R9, 0x200001C8)
T636C 000:840.898 - 0.012ms returns 0
T636C 000:840.906 JLINK_WriteReg(R10, 0x00000000)
T636C 000:840.915 - 0.012ms returns 0
T636C 000:840.924 JLINK_WriteReg(R11, 0x00000000)
T636C 000:840.932 - 0.012ms returns 0
T636C 000:840.942 JLINK_WriteReg(R12, 0x00000000)
T636C 000:840.952 - 0.014ms returns 0
T636C 000:840.962 JLINK_WriteReg(R13 (SP), 0x20001000)
T636C 000:840.973 - 0.015ms returns 0
T636C 000:840.983 JLINK_WriteReg(R14, 0x20000001)
T636C 000:840.993 - 0.014ms returns 0
T636C 000:841.003 JLINK_WriteReg(R15 (PC), 0x20000144)
T636C 000:841.013 - 0.014ms returns 0
T636C 000:841.023 JLINK_WriteReg(XPSR, 0x01000000)
T636C 000:841.032 - 0.013ms returns 0
T636C 000:841.042 JLINK_WriteReg(MSP, 0x20001000)
T636C 000:841.052 - 0.014ms returns 0
T636C 000:841.063 JLINK_WriteReg(PSP, 0x20001000)
T636C 000:841.073 - 0.014ms returns 0
T636C 000:841.083 JLINK_WriteReg(CFBP, 0x00000000)
T636C 000:841.092 - 0.014ms returns 0
T636C 000:841.103 JLINK_SetBPEx(Addr = 0x20000000, Type = 0xFFFFFFF2)
T636C 000:841.114 - 0.016ms returns 0x0000000D
T636C 000:841.125 JLINK_Go()
T636C 000:841.144   CPU_ReadMem(4 bytes @ 0xE0001000)
T636C 000:841.604   CPU_WriteMem(4 bytes @ 0xE0001000)
T636C 000:845.053 - 3.944ms
T636C 000:845.079 JLINK_IsHalted()
T636C 000:845.475 - 0.406ms returns FALSE
T636C 000:845.492 JLINK_HasError()
T636C 000:850.415 JLINK_IsHalted()
T636C 000:850.857 - 0.449ms returns FALSE
T636C 000:850.871 JLINK_HasError()
T636C 000:852.434 JLINK_IsHalted()
T636C 000:855.641   CPU_ReadMem(2 bytes @ 0x20000000)
T636C 000:856.099 - 3.676ms returns TRUE
T636C 000:856.118 JLINK_ReadReg(R15 (PC))
T636C 000:856.128 - 0.013ms returns 0x20000000
T636C 000:856.136 JLINK_ClrBPEx(BPHandle = 0x0000000D)
T636C 000:856.142 - 0.009ms returns 0x00
T636C 000:856.149 JLINK_ReadReg(R0)
T636C 000:856.155 - 0.008ms returns 0x00000000
T636C 000:856.319 JLINK_WriteMem(0x200001DC, 0x200 Bytes, ...)
T636C 000:856.332   Data:  FF E7 04 E0 26 48 4A 21 01 F0 92 FD FF E7 00 98 ...
T636C 000:856.348   CPU_WriteMem(512 bytes @ 0x200001DC)
T636C 000:862.740 - 6.436ms returns 0x200
T636C 000:862.766 JLINK_HasError()
T636C 000:862.774 JLINK_WriteReg(R0, 0x00001200)
T636C 000:862.786 - 0.015ms returns 0
T636C 000:862.794 JLINK_WriteReg(R1, 0x00000200)
T636C 000:862.800 - 0.009ms returns 0
T636C 000:862.807 JLINK_WriteReg(R2, 0x200001DC)
T636C 000:862.813 - 0.009ms returns 0
T636C 000:862.820 JLINK_WriteReg(R3, 0x00000000)
T636C 000:862.826 - 0.009ms returns 0
T636C 000:862.833 JLINK_WriteReg(R4, 0x00000000)
T636C 000:862.839 - 0.008ms returns 0
T636C 000:862.845 JLINK_WriteReg(R5, 0x00000000)
T636C 000:862.852 - 0.009ms returns 0
T636C 000:862.859 JLINK_WriteReg(R6, 0x00000000)
T636C 000:862.864 - 0.009ms returns 0
T636C 000:862.871 JLINK_WriteReg(R7, 0x00000000)
T636C 000:862.877 - 0.009ms returns 0
T636C 000:862.884 JLINK_WriteReg(R8, 0x00000000)
T636C 000:862.890 - 0.008ms returns 0
T636C 000:862.897 JLINK_WriteReg(R9, 0x200001C8)
T636C 000:862.904 - 0.009ms returns 0
